TB5BC 000:000.527   SEGGER J-Link V8.58 Log File
TB5BC 000:000.647   DLL Compiled: Aug  6 2025 12:29:52
TB5BC 000:000.651   Logging started @ 2026-05-20 21:38
TB5BC 000:000.656   Process: C:\Users\mahad\.eclipse\com.renesas.platform_1435879475\DebugComp\RA\e2-server-gdb.exe
TB5BC 000:000.664 - 0.660ms 
TB5BC 000:000.676 JLINK_GetDLLVersion()
TB5BC 000:000.681 - 0.005ms returns 85800
TB5BC 000:003.294 JLINK_OpenEx(...)
TB5BC 000:009.351   Firmware: J-Link OB-RA4M2 compiled Dec 10 2025 15:52:53
TB5BC 000:010.049   Firmware: J-Link OB-RA4M2 compiled Dec 10 2025 15:52:53
TB5BC 000:022.166   Hardware: V1.00
TB5BC 000:022.203   S/N: 1087103049
TB5BC 000:022.208   OEM: SEGGER
TB5BC 000:022.214   Feature(s): None
TB5BC 000:022.886   Bootloader: 2021 May 14
TB5BC 000:026.683   EMU: Cleaned up zombie connection 0. PID: 0x5990 (22928)
TB5BC 000:027.446   USB speed mode: Full speed (12 MBit/s)
TB5BC 000:027.842   TELNET listener socket opened on port 19021
TB5BC 000:027.980   WEBSRV WEBSRV_Init(): Starting webserver thread(s)
TB5BC 000:028.123   WEBSRV Webserver running on local port 19080
TB5BC 000:028.244   Looking for J-Link GUI Server exe at: C:\Users\mahad\.eclipse\com.renesas.platform_1435879475\DebugComp\RA\ARM\Segger_v8.58.0\JLinkGUIServer.exe
TB5BC 000:028.333   Looking for J-Link GUI Server exe at: C:\Program Files\SEGGER\JLink\JLinkGUIServer.exe
TB5BC 000:028.361   Forking J-Link GUI Server: C:\Program Files\SEGGER\JLink\JLinkGUIServer.exe
TB5BC 000:051.347   J-Link GUI Server info: "J-Link GUI server V9.30a "
TB5BC 000:054.224 - 50.922ms returns "O.K."
TB5BC 000:054.383 JLINK_TIF_Select(JLINKARM_TIF_SWD)
TB5BC 000:055.004 - 0.624ms returns 0x00
TB5BC 000:055.035 JLINK_ClrRESET()
TB5BC 000:055.329 - 0.293ms 
TB5BC 000:106.331 JLINK_SetSpeed(1500)
TB5BC 000:106.521 - 0.197ms 
TB5BC 000:106.531 JLINK_CORESIGHT_Configure(PerformTIFInit=0)
TB5BC 000:106.958 - 0.428ms returns 0
TB5BC 000:106.968 JLINK_CORESIGHT_ReadAPDPReg(DP reg 0x00)
TB5BC 000:107.177   Value=0x6BA02477
TB5BC 000:107.183 - 0.216ms returns 0
TB5BC 000:107.190 JLINK_CORESIGHT_WriteAPDPReg(DP reg 0x00, 0x0000001F)
TB5BC 000:107.409 - 0.220ms returns 0
TB5BC 000:107.415 JLINK_CORESIGHT_ReadAPDPReg(DP reg 0x00)
TB5BC 000:107.621   Value=0x6BA02477
TB5BC 000:107.642 - 0.226ms returns 0
TB5BC 000:107.650 JLINK_CORESIGHT_WriteAPDPReg(DP reg 0x02, 0x00000000)
TB5BC 000:107.911 - 0.261ms returns 0
TB5BC 000:107.918 JLINK_CORESIGHT_WriteAPDPReg(DP reg 0x01, 0x50000000)
TB5BC 000:108.134 - 0.216ms returns 0
TB5BC 000:108.151 JLINK_CORESIGHT_ReadAPDPReg(DP reg 0x01)
TB5BC 000:108.408   Value=0xF0000040
TB5BC 000:108.415 - 0.264ms returns 0
TB5BC 000:108.420 JLINK_CORESIGHT_WriteAPDPReg(DP reg 0x00, 0x0000001F)
TB5BC 000:108.630 - 0.210ms returns 0
TB5BC 000:108.636 JLINK_CORESIGHT_ReadAPDPReg(DP reg 0x00)
TB5BC 000:108.865   Value=0x6BA02477
TB5BC 000:108.871 - 0.235ms returns 0
TB5BC 000:108.876 JLINK_CORESIGHT_WriteAPDPReg(DP reg 0x01, 0x54000000)
TB5BC 000:109.104 - 0.227ms returns 0
TB5BC 000:109.110 JLINK_CORESIGHT_WriteAPDPReg(DP reg 0x01, 0x50000F00)
TB5BC 000:109.319 - 0.209ms returns 0
TB5BC 000:109.334 JLINK_CORESIGHT_WriteAPDPReg(DP reg 0x02, 0x01000000)
TB5BC 000:109.564 - 0.229ms returns 0
TB5BC 000:109.571 JLINK_CORESIGHT_WriteAPDPReg(AP reg 0x00, 0x80000002)
TB5BC 000:109.801 - 0.230ms returns 0
TB5BC 000:109.807 JLINK_CORESIGHT_WriteAPDPReg(AP reg 0x01, 0x80011100)
TB5BC 000:110.016 - 0.208ms returns 0
TB5BC 000:110.022 JLINK_CORESIGHT_WriteAPDPReg(AP reg 0x03, 0x000000A5)
TB5BC 000:110.225 - 0.203ms returns 0
TB5BC 000:110.230 JLINK_CORESIGHT_WriteAPDPReg(AP reg 0x00, 0x80000002)
TB5BC 000:110.455 - 0.224ms returns 0
TB5BC 000:110.460 JLINK_CORESIGHT_WriteAPDPReg(AP reg 0x01, 0x80011100)
TB5BC 000:110.684 - 0.223ms returns 0
TB5BC 000:110.689 JLINK_CORESIGHT_ReadAPDPReg(AP reg 0x03)
TB5BC 000:110.956   Value=0x000000A5
TB5BC 000:110.962 - 0.273ms returns 0
TB5BC 000:110.970 JLINK_ClrTMS()
TB5BC 000:111.058 - 0.090ms 
TB5BC 000:116.270 JLINK_SetTCK()
TB5BC 000:116.395 - 0.124ms returns 0
TB5BC 000:122.271 JLINK_SetRESET()
TB5BC 000:122.593 - 0.321ms 
TB5BC 000:322.921 JLINK_CORESIGHT_WriteAPDPReg(AP reg 0x00, 0x80000002)
TB5BC 000:324.894 - 1.972ms returns 0
TB5BC 000:324.972 JLINK_CORESIGHT_WriteAPDPReg(AP reg 0x01, 0x80011100)
TB5BC 000:327.760 - 2.788ms returns 0
TB5BC 000:327.823 JLINK_CORESIGHT_ReadAPDPReg(AP reg 0x03)
TB5BC 000:329.755   Value=0x00000000
TB5BC 000:329.814 - 1.991ms returns 0
TB5BC 000:329.841 JLINK_CORESIGHT_WriteAPDPReg(AP reg 0x00, 0x80000002)
TB5BC 000:330.324 - 0.482ms returns 0
TB5BC 000:330.384 JLINK_CORESIGHT_WriteAPDPReg(AP reg 0x01, 0x80011140)
TB5BC 000:332.754 - 2.369ms returns 0
TB5BC 000:332.825 JLINK_CORESIGHT_ReadAPDPReg(AP reg 0x03)
TB5BC 000:333.259   Value=0x00000002
TB5BC 000:333.317 - 0.492ms returns 0
TB5BC 000:333.344 JLINK_CORESIGHT_WriteAPDPReg(AP reg 0x00, 0x80000002)
TB5BC 000:333.695 - 0.351ms returns 0
TB5BC 000:333.755 JLINK_CORESIGHT_WriteAPDPReg(AP reg 0x01, 0x80011120)
TB5BC 000:334.079 - 0.324ms returns 0
TB5BC 000:334.102 JLINK_CORESIGHT_WriteAPDPReg(AP reg 0x03, 0x00000055)
TB5BC 000:334.439 - 0.337ms returns 0
TB5BC 000:334.459 JLINK_CORESIGHT_WriteAPDPReg(AP reg 0x00, 0x80000002)
TB5BC 000:334.745 - 0.286ms returns 0
TB5BC 000:334.763 JLINK_CORESIGHT_WriteAPDPReg(AP reg 0x01, 0x80011140)
TB5BC 000:335.048 - 0.286ms returns 0
TB5BC 000:335.066 JLINK_CORESIGHT_ReadAPDPReg(AP reg 0x03)
TB5BC 000:335.434   Value=0x00000000
TB5BC 000:335.452 - 0.386ms returns 0
TB5BC 000:335.469 JLINK_CORESIGHT_WriteAPDPReg(AP reg 0x00, 0x80000002)
TB5BC 000:335.741 - 0.272ms returns 0
TB5BC 000:335.758 JLINK_CORESIGHT_WriteAPDPReg(AP reg 0x01, 0x80011130)
TB5BC 000:336.010 - 0.252ms returns 0
TB5BC 000:336.026 JLINK_CORESIGHT_ReadAPDPReg(AP reg 0x03)
TB5BC 000:336.346   Value=0x000000C6
TB5BC 000:336.363 - 0.337ms returns 0
TB5BC 000:336.386 JLINK_CORESIGHT_WriteAPDPReg(AP reg 0x00, 0x80000002)
TB5BC 000:336.685 - 0.299ms returns 0
TB5BC 000:336.703 JLINK_CORESIGHT_WriteAPDPReg(AP reg 0x01, 0x80011140)
TB5BC 000:336.945 - 0.242ms returns 0
TB5BC 000:336.960 JLINK_CORESIGHT_ReadAPDPReg(AP reg 0x03)
TB5BC 000:337.249   Value=0x00000002
TB5BC 000:337.264 - 0.304ms returns 0
TB5BC 000:337.278 JLINK_CORESIGHT_WriteAPDPReg(AP reg 0x00, 0x80000002)
TB5BC 000:337.568 - 0.290ms returns 0
TB5BC 000:337.583 JLINK_CORESIGHT_WriteAPDPReg(AP reg 0x01, 0x80011120)
TB5BC 000:337.822 - 0.239ms returns 0
TB5BC 000:337.836 JLINK_CORESIGHT_WriteAPDPReg(AP reg 0x03, 0x3A010001)
TB5BC 000:338.106 - 0.270ms returns 0
TB5BC 000:338.121 JLINK_CORESIGHT_WriteAPDPReg(AP reg 0x00, 0x80000002)
TB5BC 000:338.426 - 0.305ms returns 0
TB5BC 000:338.440 JLINK_CORESIGHT_WriteAPDPReg(AP reg 0x01, 0x80011140)
TB5BC 000:338.749 - 0.308ms returns 0
TB5BC 000:338.817 JLINK_CORESIGHT_ReadAPDPReg(AP reg 0x03)
TB5BC 000:339.413   Value=0x00000002
TB5BC 000:339.436 - 0.618ms returns 0
TB5BC 000:339.463 JLINK_CORESIGHT_WriteAPDPReg(AP reg 0x00, 0x80000002)
TB5BC 000:339.715 - 0.253ms returns 0
TB5BC 000:339.741 JLINK_CORESIGHT_WriteAPDPReg(AP reg 0x01, 0x80011120)
TB5BC 000:340.024 - 0.283ms returns 0
TB5BC 000:340.043 JLINK_CORESIGHT_WriteAPDPReg(AP reg 0x03, 0x000003C5)
TB5BC 000:340.288 - 0.245ms returns 0
TB5BC 000:340.306 JLINK_CORESIGHT_WriteAPDPReg(AP reg 0x00, 0x80000002)
TB5BC 000:340.562 - 0.256ms returns 0
TB5BC 000:340.581 JLINK_CORESIGHT_WriteAPDPReg(AP reg 0x01, 0x80011140)
TB5BC 000:340.811 - 0.231ms returns 0
TB5BC 000:340.828 JLINK_CORESIGHT_ReadAPDPReg(AP reg 0x03)
TB5BC 000:341.125   Value=0x00000002
TB5BC 000:341.138 - 0.310ms returns 0
TB5BC 000:341.156 JLINK_CORESIGHT_ReadAPDPReg(AP reg 0x03)
TB5BC 000:341.491   Value=0x00000000
TB5BC 000:341.503 - 0.347ms returns 0
TB5BC 000:341.518 JLINK_CORESIGHT_WriteAPDPReg(AP reg 0x00, 0x80000002)
TB5BC 000:341.763 - 0.245ms returns 0
TB5BC 000:341.778 JLINK_CORESIGHT_WriteAPDPReg(AP reg 0x01, 0x80011130)
TB5BC 000:342.022 - 0.244ms returns 0
TB5BC 000:342.037 JLINK_CORESIGHT_ReadAPDPReg(AP reg 0x03)
TB5BC 000:342.331   Value=0x3A2A0081
TB5BC 000:342.342 - 0.304ms returns 0
TB5BC 000:342.362 JLINK_CORESIGHT_WriteAPDPReg(AP reg 0x00, 0x80000002)
TB5BC 000:342.609 - 0.247ms returns 0
TB5BC 000:342.624 JLINK_CORESIGHT_WriteAPDPReg(AP reg 0x01, 0x80011140)
TB5BC 000:342.846 - 0.222ms returns 0
TB5BC 000:342.861 JLINK_CORESIGHT_ReadAPDPReg(AP reg 0x03)
TB5BC 000:343.150   Value=0x00000000
TB5BC 000:343.161 - 0.300ms returns 0
TB5BC 000:343.177 JLINK_CORESIGHT_WriteAPDPReg(AP reg 0x00, 0x80000002)
TB5BC 000:343.419 - 0.242ms returns 0
TB5BC 000:343.434 JLINK_CORESIGHT_WriteAPDPReg(AP reg 0x01, 0x80011130)
TB5BC 000:343.672 - 0.238ms returns 0
TB5BC 000:343.687 JLINK_CORESIGHT_ReadAPDPReg(AP reg 0x03)
TB5BC 000:343.955   Value=0x808D5B00
TB5BC 000:343.966 - 0.279ms returns 0
TB5BC 000:343.980 JLINK_CORESIGHT_WriteAPDPReg(AP reg 0x00, 0x80000002)
TB5BC 000:344.226 - 0.245ms returns 0
TB5BC 000:344.240 JLINK_CORESIGHT_WriteAPDPReg(AP reg 0x01, 0x80011140)
TB5BC 000:344.551 - 0.310ms returns 0
TB5BC 000:344.567 JLINK_CORESIGHT_ReadAPDPReg(AP reg 0x03)
TB5BC 000:344.853   Value=0x00000000
TB5BC 000:344.863 - 0.295ms returns 0
TB5BC 000:344.876 JLINK_CORESIGHT_WriteAPDPReg(AP reg 0x00, 0x80000002)
TB5BC 000:345.093 - 0.216ms returns 0
TB5BC 000:345.107 JLINK_CORESIGHT_WriteAPDPReg(AP reg 0x01, 0x80011130)
TB5BC 000:345.420 - 0.313ms returns 0
TB5BC 000:345.434 JLINK_CORESIGHT_ReadAPDPReg(AP reg 0x03)
TB5BC 000:345.716   Value=0x0603030B
TB5BC 000:345.726 - 0.292ms returns 0
TB5BC 000:345.740 JLINK_CORESIGHT_WriteAPDPReg(AP reg 0x00, 0x80000002)
TB5BC 000:345.981 - 0.241ms returns 0
TB5BC 000:346.058 JLINK_CORESIGHT_WriteAPDPReg(AP reg 0x01, 0x80011140)
TB5BC 000:346.315 - 0.256ms returns 0
TB5BC 000:346.330 JLINK_CORESIGHT_ReadAPDPReg(AP reg 0x03)
TB5BC 000:346.614   Value=0x00000000
TB5BC 000:346.624 - 0.294ms returns 0
TB5BC 000:346.638 JLINK_CORESIGHT_WriteAPDPReg(AP reg 0x00, 0x80000002)
TB5BC 000:346.876 - 0.238ms returns 0
TB5BC 000:346.889 JLINK_CORESIGHT_WriteAPDPReg(AP reg 0x01, 0x80011130)
TB5BC 000:347.137 - 0.248ms returns 0
TB5BC 000:347.151 JLINK_CORESIGHT_ReadAPDPReg(AP reg 0x03)
TB5BC 000:347.442   Value=0x2F4B4E20
TB5BC 000:347.452 - 0.300ms returns 0
TB5BC 000:347.464 JLINK_CORESIGHT_WriteAPDPReg(AP reg 0x00, 0x80000002)
TB5BC 000:347.705 - 0.241ms returns 0
TB5BC 000:347.718 JLINK_CORESIGHT_WriteAPDPReg(AP reg 0x01, 0x80011140)
TB5BC 000:347.958 - 0.239ms returns 0
TB5BC 000:347.971 JLINK_CORESIGHT_ReadAPDPReg(AP reg 0x03)
TB5BC 000:348.264   Value=0x00000000
TB5BC 000:348.274 - 0.302ms returns 0
TB5BC 000:348.286 JLINK_CORESIGHT_WriteAPDPReg(AP reg 0x00, 0x80000002)
TB5BC 000:348.523 - 0.236ms returns 0
TB5BC 000:348.536 JLINK_CORESIGHT_WriteAPDPReg(AP reg 0x01, 0x80011130)
TB5BC 000:348.772 - 0.237ms returns 0
TB5BC 000:348.785 JLINK_CORESIGHT_ReadAPDPReg(AP reg 0x03)
TB5BC 000:349.085   Value=0x47CCEB0A
TB5BC 000:349.096 - 0.310ms returns 0
TB5BC 000:349.109 JLINK_CORESIGHT_WriteAPDPReg(AP reg 0x00, 0x80000002)
TB5BC 000:349.419 - 0.309ms returns 0
TB5BC 000:349.432 JLINK_CORESIGHT_WriteAPDPReg(AP reg 0x01, 0x80011140)
TB5BC 000:349.668 - 0.235ms returns 0
TB5BC 000:349.681 JLINK_CORESIGHT_ReadAPDPReg(AP reg 0x03)
TB5BC 000:349.967   Value=0x00000000
TB5BC 000:349.977 - 0.296ms returns 0
TB5BC 000:349.994 JLINK_CORESIGHT_WriteAPDPReg(AP reg 0x00, 0x80000002)
TB5BC 000:350.231 - 0.237ms returns 0
TB5BC 000:350.245 JLINK_CORESIGHT_WriteAPDPReg(AP reg 0x01, 0x80011130)
TB5BC 000:350.555 - 0.309ms returns 0
TB5BC 000:350.569 JLINK_CORESIGHT_ReadAPDPReg(AP reg 0x03)
TB5BC 000:350.870   Value=0x39353553
TB5BC 000:350.880 - 0.311ms returns 0
TB5BC 000:350.894 JLINK_CORESIGHT_WriteAPDPReg(AP reg 0x00, 0x80000002)
TB5BC 000:351.110 - 0.216ms returns 0
TB5BC 000:351.124 JLINK_CORESIGHT_WriteAPDPReg(AP reg 0x01, 0x80011140)
TB5BC 000:351.398 - 0.274ms returns 0
TB5BC 000:351.411 JLINK_CORESIGHT_ReadAPDPReg(AP reg 0x03)
TB5BC 000:351.690   Value=0x00000000
TB5BC 000:351.699 - 0.288ms returns 0
TB5BC 000:351.711 JLINK_CORESIGHT_WriteAPDPReg(AP reg 0x00, 0x80000002)
TB5BC 000:351.952 - 0.241ms returns 0
TB5BC 000:351.965 JLINK_CORESIGHT_WriteAPDPReg(AP reg 0x01, 0x80011130)
TB5BC 000:352.209 - 0.244ms returns 0
TB5BC 000:352.222 JLINK_CORESIGHT_ReadAPDPReg(AP reg 0x03)
TB5BC 000:352.509   Value=0x6F144333
TB5BC 000:352.519 - 0.297ms returns 0
TB5BC 000:352.532 JLINK_CORESIGHT_WriteAPDPReg(AP reg 0x00, 0x80000002)
TB5BC 000:352.769 - 0.236ms returns 0
TB5BC 000:352.781 JLINK_CORESIGHT_WriteAPDPReg(AP reg 0x01, 0x80011140)
TB5BC 000:352.998 - 0.217ms returns 0
TB5BC 000:353.011 JLINK_CORESIGHT_ReadAPDPReg(AP reg 0x03)
TB5BC 000:353.306   Value=0x00000000
TB5BC 000:353.315 - 0.304ms returns 0
TB5BC 000:353.328 JLINK_CORESIGHT_WriteAPDPReg(AP reg 0x00, 0x80000002)
TB5BC 000:353.561 - 0.233ms returns 0
TB5BC 000:353.573 JLINK_CORESIGHT_WriteAPDPReg(AP reg 0x01, 0x80011130)
TB5BC 000:353.810 - 0.237ms returns 0
TB5BC 000:353.822 JLINK_CORESIGHT_ReadAPDPReg(AP reg 0x03)
TB5BC 000:354.117   Value=0x4637526C
TB5BC 000:354.138 - 0.315ms returns 0
TB5BC 000:354.156 JLINK_CORESIGHT_WriteAPDPReg(AP reg 0x00, 0x80000002)
TB5BC 000:354.426 - 0.269ms returns 0
TB5BC 000:354.461 JLINK_CORESIGHT_WriteAPDPReg(AP reg 0x01, 0x80011140)
TB5BC 000:354.711 - 0.250ms returns 0
TB5BC 000:354.731 JLINK_CORESIGHT_ReadAPDPReg(AP reg 0x03)
TB5BC 000:355.013   Value=0x00000000
TB5BC 000:355.022 - 0.291ms returns 0
TB5BC 000:355.034 JLINK_CORESIGHT_WriteAPDPReg(AP reg 0x00, 0x80000002)
TB5BC 000:355.268 - 0.234ms returns 0
TB5BC 000:355.279 JLINK_CORESIGHT_WriteAPDPReg(AP reg 0x01, 0x80011130)
TB5BC 000:355.570 - 0.290ms returns 0
TB5BC 000:355.582 JLINK_CORESIGHT_ReadAPDPReg(AP reg 0x03)
TB5BC 000:355.862   Value=0x314D3841
TB5BC 000:355.870 - 0.288ms returns 0
TB5BC 000:355.881 JLINK_CORESIGHT_WriteAPDPReg(AP reg 0x00, 0x80000002)
TB5BC 000:356.119 - 0.238ms returns 0
TB5BC 000:356.130 JLINK_CORESIGHT_WriteAPDPReg(AP reg 0x01, 0x80011140)
TB5BC 000:356.405 - 0.275ms returns 0
TB5BC 000:356.416 JLINK_CORESIGHT_ReadAPDPReg(AP reg 0x03)
TB5BC 000:356.713   Value=0x00000000
TB5BC 000:356.721 - 0.305ms returns 0
TB5BC 000:356.732 JLINK_CORESIGHT_WriteAPDPReg(AP reg 0x00, 0x80000002)
TB5BC 000:356.964 - 0.232ms returns 0
TB5BC 000:356.975 JLINK_CORESIGHT_WriteAPDPReg(AP reg 0x01, 0x80011130)
TB5BC 000:357.203 - 0.228ms returns 0
TB5BC 000:357.214 JLINK_CORESIGHT_ReadAPDPReg(AP reg 0x03)
TB5BC 000:357.497   Value=0x43454841
TB5BC 000:357.508 - 0.294ms returns 0
TB5BC 000:357.521 JLINK_CORESIGHT_WriteAPDPReg(AP reg 0x00, 0x80000002)
TB5BC 000:357.761 - 0.240ms returns 0
TB5BC 000:357.774 JLINK_CORESIGHT_WriteAPDPReg(AP reg 0x01, 0x80011140)
TB5BC 000:358.010 - 0.235ms returns 0
TB5BC 000:358.024 JLINK_CORESIGHT_ReadAPDPReg(AP reg 0x03)
TB5BC 000:358.304   Value=0x00000000
TB5BC 000:358.312 - 0.287ms returns 0
TB5BC 000:358.323 JLINK_CORESIGHT_WriteAPDPReg(AP reg 0x00, 0x80000002)
TB5BC 000:358.598 - 0.274ms returns 0
TB5BC 000:358.609 JLINK_CORESIGHT_WriteAPDPReg(AP reg 0x01, 0x80011130)
TB5BC 000:358.875 - 0.265ms returns 0
TB5BC 000:358.903 JLINK_CORESIGHT_ReadAPDPReg(AP reg 0x03)
TB5BC 000:359.191   Value=0x20204442
TB5BC 000:359.201 - 0.298ms returns 0
TB5BC 000:359.213 JLINK_CORESIGHT_WriteAPDPReg(AP reg 0x00, 0x80000002)
TB5BC 000:359.451 - 0.238ms returns 0
TB5BC 000:359.462 JLINK_CORESIGHT_WriteAPDPReg(AP reg 0x01, 0x80011140)
TB5BC 000:359.698 - 0.236ms returns 0
TB5BC 000:359.708 JLINK_CORESIGHT_ReadAPDPReg(AP reg 0x03)
TB5BC 000:359.972   Value=0x00000000
TB5BC 000:359.979 - 0.271ms returns 0
TB5BC 000:359.993 JLINK_CORESIGHT_WriteAPDPReg(AP reg 0x00, 0x80000002)
TB5BC 000:360.222 - 0.229ms returns 0
TB5BC 000:360.231 JLINK_CORESIGHT_WriteAPDPReg(AP reg 0x01, 0x80011130)
TB5BC 000:360.435 - 0.204ms returns 0
TB5BC 000:360.443 JLINK_CORESIGHT_ReadAPDPReg(AP reg 0x03)
TB5BC 000:360.708   Value=0x00031520
TB5BC 000:360.715 - 0.272ms returns 0
TB5BC 000:361.048 JLINK_CORESIGHT_WriteAPDPReg(AP reg 0x00, 0x80000002)
TB5BC 000:361.286 - 0.238ms returns 0
TB5BC 000:361.293 JLINK_CORESIGHT_WriteAPDPReg(AP reg 0x01, 0x80011140)
TB5BC 000:361.538 - 0.245ms returns 0
TB5BC 000:361.544 JLINK_CORESIGHT_ReadAPDPReg(AP reg 0x03)
TB5BC 000:361.870   Value=0x00000002
TB5BC 000:361.879 - 0.334ms returns 0
TB5BC 000:361.885 JLINK_CORESIGHT_WriteAPDPReg(AP reg 0x00, 0x80000002)
TB5BC 000:362.092 - 0.207ms returns 0
TB5BC 000:362.098 JLINK_CORESIGHT_WriteAPDPReg(AP reg 0x01, 0x80011120)
TB5BC 000:362.304 - 0.205ms returns 0
TB5BC 000:362.310 JLINK_CORESIGHT_WriteAPDPReg(AP reg 0x03, 0x2C010001)
TB5BC 000:362.551 - 0.241ms returns 0
TB5BC 000:362.558 JLINK_CORESIGHT_WriteAPDPReg(AP reg 0x00, 0x80000002)
TB5BC 000:362.767 - 0.209ms returns 0
TB5BC 000:362.773 JLINK_CORESIGHT_WriteAPDPReg(AP reg 0x01, 0x80011140)
TB5BC 000:362.976 - 0.203ms returns 0
TB5BC 000:362.983 JLINK_CORESIGHT_ReadAPDPReg(AP reg 0x03)
TB5BC 000:363.232   Value=0x00000002
TB5BC 000:363.239 - 0.256ms returns 0
TB5BC 000:363.245 JLINK_CORESIGHT_WriteAPDPReg(AP reg 0x00, 0x80000002)
TB5BC 000:363.515 - 0.270ms returns 0
TB5BC 000:363.521 JLINK_CORESIGHT_WriteAPDPReg(AP reg 0x01, 0x80011120)
TB5BC 000:363.725 - 0.203ms returns 0
TB5BC 000:363.731 JLINK_CORESIGHT_WriteAPDPReg(AP reg 0x03, 0x000003D3)
TB5BC 000:363.935 - 0.204ms returns 0
TB5BC 000:363.942 JLINK_CORESIGHT_WriteAPDPReg(AP reg 0x00, 0x80000002)
TB5BC 000:364.176 - 0.234ms returns 0
TB5BC 000:364.182 JLINK_CORESIGHT_WriteAPDPReg(AP reg 0x01, 0x80011140)
TB5BC 000:364.433 - 0.251ms returns 0
TB5BC 000:364.440 JLINK_CORESIGHT_ReadAPDPReg(AP reg 0x03)
TB5BC 000:364.722   Value=0x00000002
TB5BC 000:364.729 - 0.289ms returns 0
TB5BC 000:364.735 JLINK_CORESIGHT_ReadAPDPReg(AP reg 0x03)
TB5BC 000:364.972   Value=0x00000002
TB5BC 000:364.979 - 0.244ms returns 0
TB5BC 000:364.985 JLINK_CORESIGHT_ReadAPDPReg(AP reg 0x03)
TB5BC 000:365.232   Value=0x00000002
TB5BC 000:365.238 - 0.253ms returns 0
TB5BC 000:365.244 JLINK_CORESIGHT_ReadAPDPReg(AP reg 0x03)
TB5BC 000:365.562   Value=0x00000002
TB5BC 000:365.569 - 0.324ms returns 0
TB5BC 000:365.575 JLINK_CORESIGHT_ReadAPDPReg(AP reg 0x03)
TB5BC 000:365.826   Value=0x00000002
TB5BC 000:365.833 - 0.258ms returns 0
TB5BC 000:365.839 JLINK_CORESIGHT_ReadAPDPReg(AP reg 0x03)
TB5BC 000:366.097   Value=0x00000002
TB5BC 000:366.104 - 0.265ms returns 0
TB5BC 000:366.110 JLINK_CORESIGHT_ReadAPDPReg(AP reg 0x03)
TB5BC 000:366.414   Value=0x00000000
TB5BC 000:366.420 - 0.310ms returns 0
TB5BC 000:366.427 JLINK_CORESIGHT_WriteAPDPReg(AP reg 0x00, 0x80000002)
TB5BC 000:366.631 - 0.204ms returns 0
TB5BC 000:366.638 JLINK_CORESIGHT_WriteAPDPReg(AP reg 0x01, 0x80011130)
TB5BC 000:366.867 - 0.229ms returns 0
TB5BC 000:366.873 JLINK_CORESIGHT_ReadAPDPReg(AP reg 0x03)
TB5BC 000:367.131   Value=0x2C020081
TB5BC 000:367.138 - 0.264ms returns 0
TB5BC 000:367.144 JLINK_CORESIGHT_WriteAPDPReg(AP reg 0x00, 0x80000002)
TB5BC 000:367.404 - 0.259ms returns 0
TB5BC 000:367.410 JLINK_CORESIGHT_WriteAPDPReg(AP reg 0x01, 0x80011140)
TB5BC 000:367.619 - 0.209ms returns 0
TB5BC 000:367.626 JLINK_CORESIGHT_ReadAPDPReg(AP reg 0x03)
TB5BC 000:367.881   Value=0x00000000
TB5BC 000:367.888 - 0.262ms returns 0
TB5BC 000:367.894 JLINK_CORESIGHT_WriteAPDPReg(AP reg 0x00, 0x80000002)
TB5BC 000:368.141 - 0.247ms returns 0
TB5BC 000:368.147 JLINK_CORESIGHT_WriteAPDPReg(AP reg 0x01, 0x80011130)
TB5BC 000:368.403 - 0.255ms returns 0
TB5BC 000:368.409 JLINK_CORESIGHT_ReadAPDPReg(AP reg 0x03)
TB5BC 000:368.677   Value=0x0003CE04
TB5BC 000:368.684 - 0.274ms returns 0
TB5BC 000:368.693 JLINK_CORESIGHT_WriteAPDPReg(AP reg 0x00, 0x80000002)
TB5BC 000:368.925 - 0.231ms returns 0
TB5BC 000:368.932 JLINK_CORESIGHT_WriteAPDPReg(AP reg 0x01, 0x80011140)
TB5BC 000:369.143 - 0.211ms returns 0
TB5BC 000:369.150 JLINK_CORESIGHT_ReadAPDPReg(AP reg 0x03)
TB5BC 000:369.413   Value=0x00000002
TB5BC 000:369.431 - 0.281ms returns 0
TB5BC 000:369.440 JLINK_CORESIGHT_WriteAPDPReg(AP reg 0x00, 0x80000002)
TB5BC 000:369.663 - 0.223ms returns 0
TB5BC 000:369.681 JLINK_CORESIGHT_WriteAPDPReg(AP reg 0x01, 0x80011120)
TB5BC 000:369.932 - 0.252ms returns 0
TB5BC 000:369.944 JLINK_CORESIGHT_WriteAPDPReg(AP reg 0x03, 0x73010001)
TB5BC 000:370.193 - 0.248ms returns 0
TB5BC 000:370.205 JLINK_CORESIGHT_WriteAPDPReg(AP reg 0x00, 0x80000002)
TB5BC 000:370.444 - 0.238ms returns 0
TB5BC 000:370.454 JLINK_CORESIGHT_WriteAPDPReg(AP reg 0x01, 0x80011140)
TB5BC 000:370.714 - 0.259ms returns 0
TB5BC 000:370.730 JLINK_CORESIGHT_ReadAPDPReg(AP reg 0x03)
TB5BC 000:371.018   Value=0x00000002
TB5BC 000:371.036 - 0.305ms returns 0
TB5BC 000:371.044 JLINK_CORESIGHT_WriteAPDPReg(AP reg 0x00, 0x80000002)
TB5BC 000:371.302 - 0.257ms returns 0
TB5BC 000:371.309 JLINK_CORESIGHT_WriteAPDPReg(AP reg 0x01, 0x80011120)
TB5BC 000:371.579 - 0.266ms returns 0
TB5BC 000:371.681 JLINK_CORESIGHT_WriteAPDPReg(AP reg 0x03, 0x0000038C)
TB5BC 000:372.007 - 0.330ms returns 0
TB5BC 000:372.020 JLINK_CORESIGHT_WriteAPDPReg(AP reg 0x00, 0x80000002)
TB5BC 000:372.255 - 0.235ms returns 0
TB5BC 000:372.263 JLINK_CORESIGHT_WriteAPDPReg(AP reg 0x01, 0x80011140)
TB5BC 000:372.513 - 0.250ms returns 0
TB5BC 000:372.524 JLINK_CORESIGHT_ReadAPDPReg(AP reg 0x03)
TB5BC 000:372.806   Value=0x00000002
TB5BC 000:372.819 - 0.295ms returns 0
TB5BC 000:372.826 JLINK_CORESIGHT_ReadAPDPReg(AP reg 0x03)
TB5BC 000:373.072   Value=0x00000002
TB5BC 000:373.079 - 0.252ms returns 0
TB5BC 000:373.084 JLINK_CORESIGHT_ReadAPDPReg(AP reg 0x03)
TB5BC 000:373.352   Value=0x00000002
TB5BC 000:373.360 - 0.275ms returns 0
TB5BC 000:373.365 JLINK_CORESIGHT_ReadAPDPReg(AP reg 0x03)
TB5BC 000:373.643   Value=0x00000002
TB5BC 000:373.649 - 0.284ms returns 0
TB5BC 000:373.655 JLINK_CORESIGHT_ReadAPDPReg(AP reg 0x03)
TB5BC 000:373.901   Value=0x00000002
TB5BC 000:373.908 - 0.253ms returns 0
TB5BC 000:373.913 JLINK_CORESIGHT_ReadAPDPReg(AP reg 0x03)
TB5BC 000:374.163   Value=0x00000002
TB5BC 000:374.170 - 0.256ms returns 0
TB5BC 000:374.175 JLINK_CORESIGHT_ReadAPDPReg(AP reg 0x03)
TB5BC 000:374.447   Value=0x00000002
TB5BC 000:374.453 - 0.278ms returns 0
TB5BC 000:374.458 JLINK_CORESIGHT_ReadAPDPReg(AP reg 0x03)
TB5BC 000:374.706   Value=0x00000002
TB5BC 000:374.713 - 0.254ms returns 0
TB5BC 000:374.718 JLINK_CORESIGHT_ReadAPDPReg(AP reg 0x03)
TB5BC 000:374.972   Value=0x00000002
TB5BC 000:374.978 - 0.260ms returns 0
TB5BC 000:374.983 JLINK_CORESIGHT_ReadAPDPReg(AP reg 0x03)
TB5BC 000:375.232   Value=0x00000002
TB5BC 000:375.238 - 0.255ms returns 0
TB5BC 000:375.244 JLINK_CORESIGHT_ReadAPDPReg(AP reg 0x03)
TB5BC 000:375.605   Value=0x00000002
TB5BC 000:375.612 - 0.368ms returns 0
TB5BC 000:375.617 JLINK_CORESIGHT_ReadAPDPReg(AP reg 0x03)
TB5BC 000:375.869   Value=0x00000000
TB5BC 000:375.875 - 0.257ms returns 0
TB5BC 000:375.880 JLINK_CORESIGHT_WriteAPDPReg(AP reg 0x00, 0x80000002)
TB5BC 000:376.085 - 0.204ms returns 0
TB5BC 000:376.091 JLINK_CORESIGHT_WriteAPDPReg(AP reg 0x01, 0x80011130)
TB5BC 000:376.334 - 0.243ms returns 0
TB5BC 000:376.340 JLINK_CORESIGHT_ReadAPDPReg(AP reg 0x03)
TB5BC 000:376.619   Value=0x73020081
TB5BC 000:376.626 - 0.285ms returns 0
TB5BC 000:376.631 JLINK_CORESIGHT_WriteAPDPReg(AP reg 0x00, 0x80000002)
TB5BC 000:376.851 - 0.219ms returns 0
TB5BC 000:376.857 JLINK_CORESIGHT_WriteAPDPReg(AP reg 0x01, 0x80011140)
TB5BC 000:377.063 - 0.206ms returns 0
TB5BC 000:377.071 JLINK_CORESIGHT_ReadAPDPReg(AP reg 0x03)
TB5BC 000:377.427   Value=0x00000000
TB5BC 000:377.437 - 0.366ms returns 0
TB5BC 000:377.443 JLINK_CORESIGHT_WriteAPDPReg(AP reg 0x00, 0x80000002)
TB5BC 000:377.862 - 0.419ms returns 0
TB5BC 000:377.869 JLINK_CORESIGHT_WriteAPDPReg(AP reg 0x01, 0x80011130)
TB5BC 000:378.104 - 0.234ms returns 0
TB5BC 000:378.110 JLINK_CORESIGHT_ReadAPDPReg(AP reg 0x03)
TB5BC 000:378.444   Value=0x00038902
TB5BC 000:378.455 - 0.345ms returns 0
TB5BC 000:378.463 JLINK_CORESIGHT_WriteAPDPReg(AP reg 0x00, 0x80000002)
TB5BC 000:378.711 - 0.247ms returns 0
TB5BC 000:378.730 JLINK_CORESIGHT_WriteAPDPReg(AP reg 0x01, 0x80011140)
TB5BC 000:378.950 - 0.220ms returns 0
TB5BC 000:378.961 JLINK_CORESIGHT_ReadAPDPReg(AP reg 0x03)
TB5BC 000:379.220   Value=0x00000002
TB5BC 000:379.230 - 0.269ms returns 0
TB5BC 000:379.237 JLINK_CORESIGHT_WriteAPDPReg(AP reg 0x00, 0x80000002)
TB5BC 000:379.532 - 0.294ms returns 0
TB5BC 000:379.543 JLINK_CORESIGHT_WriteAPDPReg(AP reg 0x01, 0x80011120)
TB5BC 000:379.755 - 0.212ms returns 0
TB5BC 000:379.761 JLINK_CORESIGHT_WriteAPDPReg(AP reg 0x03, 0x75010001)
TB5BC 000:379.970 - 0.209ms returns 0
TB5BC 000:379.976 JLINK_CORESIGHT_WriteAPDPReg(AP reg 0x00, 0x80000002)
TB5BC 000:380.179 - 0.203ms returns 0
TB5BC 000:380.185 JLINK_CORESIGHT_WriteAPDPReg(AP reg 0x01, 0x80011140)
TB5BC 000:380.413 - 0.228ms returns 0
TB5BC 000:380.418 JLINK_CORESIGHT_ReadAPDPReg(AP reg 0x03)
TB5BC 000:380.686   Value=0x00000002
TB5BC 000:380.692 - 0.273ms returns 0
TB5BC 000:380.698 JLINK_CORESIGHT_WriteAPDPReg(AP reg 0x00, 0x80000002)
TB5BC 000:380.902 - 0.204ms returns 0
TB5BC 000:380.908 JLINK_CORESIGHT_WriteAPDPReg(AP reg 0x01, 0x80011120)
TB5BC 000:381.117 - 0.209ms returns 0
TB5BC 000:381.123 JLINK_CORESIGHT_WriteAPDPReg(AP reg 0x03, 0x0000038A)
TB5BC 000:381.415 - 0.292ms returns 0
TB5BC 000:381.421 JLINK_CORESIGHT_WriteAPDPReg(AP reg 0x00, 0x80000002)
TB5BC 000:381.629 - 0.208ms returns 0
TB5BC 000:381.635 JLINK_CORESIGHT_WriteAPDPReg(AP reg 0x01, 0x80011140)
TB5BC 000:381.844 - 0.209ms returns 0
TB5BC 000:381.850 JLINK_CORESIGHT_ReadAPDPReg(AP reg 0x03)
TB5BC 000:382.113   Value=0x00000002
TB5BC 000:382.119 - 0.269ms returns 0
TB5BC 000:382.125 JLINK_CORESIGHT_ReadAPDPReg(AP reg 0x03)
TB5BC 000:382.402   Value=0x00000002
TB5BC 000:382.408 - 0.283ms returns 0
TB5BC 000:382.413 JLINK_CORESIGHT_ReadAPDPReg(AP reg 0x03)
TB5BC 000:382.660   Value=0x00000002
TB5BC 000:382.666 - 0.253ms returns 0
TB5BC 000:382.672 JLINK_CORESIGHT_ReadAPDPReg(AP reg 0x03)
TB5BC 000:382.925   Value=0x00000002
TB5BC 000:382.931 - 0.259ms returns 0
TB5BC 000:382.937 JLINK_CORESIGHT_ReadAPDPReg(AP reg 0x03)
TB5BC 000:383.187   Value=0x00000002
TB5BC 000:383.193 - 0.256ms returns 0
TB5BC 000:383.199 JLINK_CORESIGHT_ReadAPDPReg(AP reg 0x03)
TB5BC 000:383.436   Value=0x00000002
TB5BC 000:383.442 - 0.243ms returns 0
TB5BC 000:383.447 JLINK_CORESIGHT_ReadAPDPReg(AP reg 0x03)
TB5BC 000:383.697   Value=0x00000002
TB5BC 000:383.703 - 0.256ms returns 0
TB5BC 000:383.709 JLINK_CORESIGHT_ReadAPDPReg(AP reg 0x03)
TB5BC 000:383.956   Value=0x00000002
TB5BC 000:383.962 - 0.253ms returns 0
TB5BC 000:383.968 JLINK_CORESIGHT_ReadAPDPReg(AP reg 0x03)
TB5BC 000:384.221   Value=0x00000002
TB5BC 000:384.227 - 0.259ms returns 0
TB5BC 000:384.232 JLINK_CORESIGHT_ReadAPDPReg(AP reg 0x03)
TB5BC 000:384.481   Value=0x00000002
TB5BC 000:384.487 - 0.254ms returns 0
TB5BC 000:384.492 JLINK_CORESIGHT_ReadAPDPReg(AP reg 0x03)
TB5BC 000:384.744   Value=0x00000002
TB5BC 000:384.749 - 0.257ms returns 0
TB5BC 000:384.755 JLINK_CORESIGHT_ReadAPDPReg(AP reg 0x03)
TB5BC 000:385.004   Value=0x00000002
TB5BC 000:385.010 - 0.255ms returns 0
TB5BC 000:385.015 JLINK_CORESIGHT_ReadAPDPReg(AP reg 0x03)
TB5BC 000:385.300   Value=0x00000002
TB5BC 000:385.310 - 0.294ms returns 0
TB5BC 000:385.317 JLINK_CORESIGHT_ReadAPDPReg(AP reg 0x03)
TB5BC 000:385.960   Value=0x00000000
TB5BC 000:385.974 - 0.657ms returns 0
TB5BC 000:385.981 JLINK_CORESIGHT_WriteAPDPReg(AP reg 0x00, 0x80000002)
TB5BC 000:386.230 - 0.248ms returns 0
TB5BC 000:386.245 JLINK_CORESIGHT_WriteAPDPReg(AP reg 0x01, 0x80011130)
TB5BC 000:386.528 - 0.283ms returns 0
TB5BC 000:386.542 JLINK_CORESIGHT_ReadAPDPReg(AP reg 0x03)
TB5BC 000:386.816   Value=0x75020081
TB5BC 000:386.823 - 0.280ms returns 0
TB5BC 000:386.832 JLINK_CORESIGHT_WriteAPDPReg(AP reg 0x00, 0x80000002)
TB5BC 000:387.063 - 0.230ms returns 0
TB5BC 000:387.071 JLINK_CORESIGHT_WriteAPDPReg(AP reg 0x01, 0x80011140)
TB5BC 000:387.276 - 0.205ms returns 0
TB5BC 000:387.284 JLINK_CORESIGHT_ReadAPDPReg(AP reg 0x03)
TB5BC 000:387.597   Value=0x00000000
TB5BC 000:387.603 - 0.318ms returns 0
TB5BC 000:387.612 JLINK_CORESIGHT_WriteAPDPReg(AP reg 0x00, 0x80000002)
TB5BC 000:387.864 - 0.252ms returns 0
TB5BC 000:387.872 JLINK_CORESIGHT_WriteAPDPReg(AP reg 0x01, 0x80011130)
TB5BC 000:388.075 - 0.203ms returns 0
TB5BC 000:388.083 JLINK_CORESIGHT_ReadAPDPReg(AP reg 0x03)
TB5BC 000:388.402   Value=0x00038702
TB5BC 000:388.411 - 0.327ms returns 0
TB5BC 000:388.427 JLINK_CORESIGHT_WriteAPDPReg(AP reg 0x00, 0x80000002)
TB5BC 000:388.653 - 0.227ms returns 0
TB5BC 000:388.661 JLINK_CORESIGHT_WriteAPDPReg(AP reg 0x01, 0x80011140)
TB5BC 000:388.867 - 0.205ms returns 0
TB5BC 000:388.875 JLINK_CORESIGHT_ReadAPDPReg(AP reg 0x03)
TB5BC 000:389.129   Value=0x00000002
TB5BC 000:389.135 - 0.260ms returns 0
TB5BC 000:389.143 JLINK_CORESIGHT_WriteAPDPReg(AP reg 0x00, 0x80000002)
TB5BC 000:389.408 - 0.265ms returns 0
TB5BC 000:389.416 JLINK_CORESIGHT_WriteAPDPReg(AP reg 0x01, 0x80011120)
TB5BC 000:389.617 - 0.201ms returns 0
TB5BC 000:389.624 JLINK_CORESIGHT_WriteAPDPReg(AP reg 0x03, 0x4F010001)
TB5BC 000:389.826 - 0.202ms returns 0
TB5BC 000:389.834 JLINK_CORESIGHT_WriteAPDPReg(AP reg 0x00, 0x80000002)
TB5BC 000:390.038 - 0.204ms returns 0
TB5BC 000:390.046 JLINK_CORESIGHT_WriteAPDPReg(AP reg 0x01, 0x80011140)
TB5BC 000:390.254 - 0.208ms returns 0
TB5BC 000:390.262 JLINK_CORESIGHT_ReadAPDPReg(AP reg 0x03)
TB5BC 000:390.594   Value=0x00000002
TB5BC 000:390.601 - 0.339ms returns 0
TB5BC 000:390.610 JLINK_CORESIGHT_WriteAPDPReg(AP reg 0x00, 0x80000002)
TB5BC 000:390.811 - 0.201ms returns 0
TB5BC 000:390.819 JLINK_CORESIGHT_WriteAPDPReg(AP reg 0x01, 0x80011120)
TB5BC 000:391.061 - 0.241ms returns 0
TB5BC 000:391.068 JLINK_CORESIGHT_WriteAPDPReg(AP reg 0x03, 0x000003B0)
TB5BC 000:391.292 - 0.223ms returns 0
TB5BC 000:391.300 JLINK_CORESIGHT_WriteAPDPReg(AP reg 0x00, 0x80000002)
TB5BC 000:391.541 - 0.241ms returns 0
TB5BC 000:391.550 JLINK_CORESIGHT_WriteAPDPReg(AP reg 0x01, 0x80011140)
TB5BC 000:391.755 - 0.205ms returns 0
TB5BC 000:391.763 JLINK_CORESIGHT_ReadAPDPReg(AP reg 0x03)
TB5BC 000:392.036   Value=0x00000002
TB5BC 000:392.043 - 0.280ms returns 0
TB5BC 000:392.050 JLINK_CORESIGHT_ReadAPDPReg(AP reg 0x03)
TB5BC 000:392.301   Value=0x00000002
TB5BC 000:392.307 - 0.257ms returns 0
TB5BC 000:392.315 JLINK_CORESIGHT_ReadAPDPReg(AP reg 0x03)
TB5BC 000:392.561   Value=0x00000002
TB5BC 000:392.567 - 0.252ms returns 0
TB5BC 000:392.574 JLINK_CORESIGHT_ReadAPDPReg(AP reg 0x03)
TB5BC 000:392.823   Value=0x00000002
TB5BC 000:392.829 - 0.255ms returns 0
TB5BC 000:392.837 JLINK_CORESIGHT_ReadAPDPReg(AP reg 0x03)
TB5BC 000:393.084   Value=0x00000002
TB5BC 000:393.090 - 0.253ms returns 0
TB5BC 000:393.097 JLINK_CORESIGHT_ReadAPDPReg(AP reg 0x03)
TB5BC 000:393.453   Value=0x00000002
TB5BC 000:393.459 - 0.361ms returns 0
TB5BC 000:393.466 JLINK_CORESIGHT_ReadAPDPReg(AP reg 0x03)
TB5BC 000:393.732   Value=0x00000000
TB5BC 000:393.738 - 0.271ms returns 0
TB5BC 000:393.745 JLINK_CORESIGHT_WriteAPDPReg(AP reg 0x00, 0x80000002)
TB5BC 000:393.949 - 0.203ms returns 0
TB5BC 000:393.956 JLINK_CORESIGHT_WriteAPDPReg(AP reg 0x01, 0x80011130)
TB5BC 000:394.158 - 0.202ms returns 0
TB5BC 000:394.166 JLINK_CORESIGHT_ReadAPDPReg(AP reg 0x03)
TB5BC 000:394.436   Value=0x4F0B0081
TB5BC 000:394.442 - 0.276ms returns 0
TB5BC 000:394.450 JLINK_CORESIGHT_WriteAPDPReg(AP reg 0x00, 0x80000002)
TB5BC 000:394.653 - 0.203ms returns 0
TB5BC 000:394.661 JLINK_CORESIGHT_WriteAPDPReg(AP reg 0x01, 0x80011140)
TB5BC 000:394.867 - 0.206ms returns 0
TB5BC 000:394.875 JLINK_CORESIGHT_ReadAPDPReg(AP reg 0x03)
TB5BC 000:395.138   Value=0x00000000
TB5BC 000:395.144 - 0.268ms returns 0
TB5BC 000:395.151 JLINK_CORESIGHT_WriteAPDPReg(AP reg 0x00, 0x80000002)
TB5BC 000:395.402 - 0.250ms returns 0
TB5BC 000:395.410 JLINK_CORESIGHT_WriteAPDPReg(AP reg 0x01, 0x80011130)
TB5BC 000:395.617 - 0.207ms returns 0
TB5BC 000:395.625 JLINK_CORESIGHT_ReadAPDPReg(AP reg 0x03)
TB5BC 000:395.879   Value=0x40000000
TB5BC 000:395.885 - 0.260ms returns 0
TB5BC 000:395.893 JLINK_CORESIGHT_WriteAPDPReg(AP reg 0x00, 0x80000002)
TB5BC 000:396.094 - 0.200ms returns 0
TB5BC 000:396.102 JLINK_CORESIGHT_WriteAPDPReg(AP reg 0x01, 0x80011140)
TB5BC 000:396.302 - 0.200ms returns 0
TB5BC 000:396.310 JLINK_CORESIGHT_ReadAPDPReg(AP reg 0x03)
TB5BC 000:396.610   Value=0x00000000
TB5BC 000:396.616 - 0.305ms returns 0
TB5BC 000:396.695 JLINK_CORESIGHT_WriteAPDPReg(AP reg 0x00, 0x80000002)
TB5BC 000:396.902 - 0.206ms returns 0
TB5BC 000:396.910 JLINK_CORESIGHT_WriteAPDPReg(AP reg 0x01, 0x80011130)
TB5BC 000:397.117 - 0.207ms returns 0
TB5BC 000:397.125 JLINK_CORESIGHT_ReadAPDPReg(AP reg 0x03)
TB5BC 000:397.404   Value=0x00000000
TB5BC 000:397.410 - 0.285ms returns 0
TB5BC 000:397.417 JLINK_CORESIGHT_WriteAPDPReg(AP reg 0x00, 0x80000002)
TB5BC 000:397.664 - 0.247ms returns 0
TB5BC 000:397.672 JLINK_CORESIGHT_WriteAPDPReg(AP reg 0x01, 0x80011140)
TB5BC 000:397.879 - 0.207ms returns 0
TB5BC 000:397.887 JLINK_CORESIGHT_ReadAPDPReg(AP reg 0x03)
TB5BC 000:398.142   Value=0x00000000
TB5BC 000:398.148 - 0.260ms returns 0
TB5BC 000:398.155 JLINK_CORESIGHT_WriteAPDPReg(AP reg 0x00, 0x80000002)
TB5BC 000:398.404 - 0.248ms returns 0
TB5BC 000:398.412 JLINK_CORESIGHT_WriteAPDPReg(AP reg 0x01, 0x80011130)
TB5BC 000:398.617 - 0.206ms returns 0
TB5BC 000:398.625 JLINK_CORESIGHT_ReadAPDPReg(AP reg 0x03)
TB5BC 000:398.880   Value=0x03660000
TB5BC 000:398.886 - 0.260ms returns 0
TB5BC 000:399.203 JLINK_CORESIGHT_ReadAPDPReg(DP reg 0x01)
TB5BC 000:399.454   Value=0xF0000F40
TB5BC 000:399.461 - 0.258ms returns 0
TB5BC 000:399.466 JLINK_CORESIGHT_WriteAPDPReg(DP reg 0x01, 0xA0000F40)
TB5BC 000:399.686 - 0.219ms returns 0
TB5BC 000:399.692 JLINK_CORESIGHT_ReadAPDPReg(DP reg 0x01)
TB5BC 000:399.926   Value=0x00000F40
TB5BC 000:399.932 - 0.240ms returns 0
TB5BC 000:399.937 JLINK_ClrRESET()
TB5BC 000:400.129 - 0.192ms 
TB5BC 000:505.126 JLINK_Close()
TB5BC 000:517.698 - 12.571ms
TB5BC 000:517.725   
TB5BC 000:517.730   Closed
